Freq.	V(vout)/V(n001)
1.00000000000000e+002	(-2.34227312271757e-002dB,-4.20585249476093e+000°)
1.02329299228075e+002	(-2.45242784300528e-002dB,-4.30352378535847e+000°)
1.04712854805090e+002	(-2.56775157341070e-002dB,-4.40344907734555e+000°)
1.07151930523761e+002	(-2.68848577014168e-002dB,-4.50567937772702e+000°)
1.09647819614318e+002	(-2.81488306298348e-002dB,-4.61026677592470e+000°)
1.12201845430196e+002	(-2.94720776227904e-002dB,-4.71726446158413e+000°)
1.14815362149688e+002	(-3.08573638794285e-002dB,-4.82672674228472e+000°)
1.17489755493953e+002	(-3.23075822137938e-002dB,-4.93870906111671e+000°)
1.20226443461741e+002	(-3.38257588119196e-002dB,-5.05326801408548e+000°)
1.23026877081238e+002	(-3.54150592359689e-002dB,-5.17046136729998e+000°)
1.25892541179417e+002	(-3.70787946848345e-002dB,-5.29034807389924e+000°)
1.28824955169313e+002	(-3.88204285207871e-002dB,-5.41298829066660e+000°)
1.31825673855641e+002	(-4.06435830719977e-002dB,-5.53844339427804e+000°)
1.34896288259165e+002	(-4.25520467210976e-002dB,-5.66677599712623e+000°)
1.38038426460288e+002	(-4.45497812899091e-002dB,-5.79804996265802e+000°)
1.41253754462275e+002	(-4.66409297309494e-002dB,-5.93233042015821e+000°)
1.44543977074593e+002	(-4.88298241362608e-002dB,-6.06968377890742e+000°)
1.47910838816821e+002	(-5.11209940744163e-002dB,-6.21017774163704e+000°)
1.51356124843621e+002	(-5.35191752666698e-002dB,-6.35388131719820e+000°)
1.54881661891248e+002	(-5.60293186132564e-002dB,-6.50086483235645e+000°)
1.58489319246111e+002	(-5.86565995810526e-002dB,-6.65119994261735e+000°)
1.62181009735893e+002	(-6.14064279637149e-002dB,-6.80495964198181e+000°)
1.65958690743756e+002	(-6.42844580256293e-002dB,-6.96221827152341e+000°)
1.69824365246174e+002	(-6.72965990407428e-002dB,-7.12305152667253e+000°)
1.73780082874937e+002	(-7.04490262374348e-002dB,-7.28753646308498e+000°)
1.77827941003892e+002	(-7.37481921604948e-002dB,-7.45575150096477e+000°)
1.81970085860998e+002	(-7.72008384608751e-002dB,-7.62777642770270e+000°)
1.86208713666287e+002	(-8.08140081238854e-002dB,-7.80369239868364e+000°)
1.90546071796324e+002	(-8.45950581460667e-002dB,-7.98358193610703e+000°)
1.94984459975804e+002	(-8.85516726704991e-002dB,-8.16752892565532e+000°)
1.99526231496888e+002	(-9.26918765900451e-002dB,-8.35561861083597e+000°)
2.04173794466953e+002	(-9.70240496271959e-002dB,-8.54793758481255e+000°)
2.08929613085404e+002	(-1.01556940898652e-001dB,-8.74457377953040e+000°)
2.13796208950223e+002	(-1.06299683972040e-001dB,-8.94561645193165e+000°)
2.18776162394955e+002	(-1.11261812420981e-001dB,-9.15115616704391e+000°)
2.23872113856834e+002	(-1.16453275884030e-001dB,-9.36128477771574e+000°)
2.29086765276777e+002	(-1.21884456631548e-001dB,-9.57609540076094e+000°)
2.34422881531992e+002	(-1.27566186643301e-001dB,-9.79568238926230e+000°)
2.39883291901949e+002	(-1.33509765198141e-001dB,-1.00201413007741e+001°)
2.45470891568503e+002	(-1.39726976975319e-001dB,-1.02495688611513e+001°)
2.51188643150958e+002	(-1.46230110665197e-001dB,-1.04840629237209e+001°)
2.57039578276886e+002	(-1.53031978084923e-001dB,-1.07237224235025e+001°)
2.63026799189538e+002	(-1.60145933792535e-001dB,-1.09686473261691e+001°)
2.69153480392691e+002	(-1.67585895190195e-001dB,-1.12189385714345e+001°)
2.75422870333816e+002	(-1.75366363104719e-001dB,-1.14746980105374e+001°)
2.81838293126445e+002	(-1.83502442830349e-001dB,-1.17360283374875e+001°)
2.88403150312660e+002	(-1.92009865615676e-001dB,-1.20030330137269e+001°)
2.95120922666638e+002	(-2.00905010572865e-001dB,-1.22758161858521e+001°)
3.01995172040201e+002	(-2.10204926983609e-001dB,-1.25544825960383e+001°)
3.09029543251358e+002	(-2.19927356972185e-001dB,-1.28391374847969e+001°)
3.16227766016837e+002	(-2.30090758511543e-001dB,-1.31298864856975e+001°)
3.23593656929628e+002	(-2.40714328723517e-001dB,-1.34268355116810e+001°)
3.31131121482590e+002	(-2.51818027429601e-001dB,-1.37300906325916e+001°)
3.38844156139202e+002	(-2.63422600903154e-001dB,-1.40397579435558e+001°)
3.46736850452531e+002	(-2.75549605768391e-001dB,-1.43559434238439e+001°)
3.54813389233575e+002	(-2.88221432985850e-001dB,-1.46787527858551e+001°)
3.63078054770101e+002	(-3.01461331857743e-001dB,-1.50082913138803e+001°)
3.71535229097172e+002	(-3.15293433980262e-001dB,-1.53446636923104e+001°)
3.80189396320560e+002	(-3.29742777063620e-001dB,-1.56879738229780e+001°)
3.89045144994280e+002	(-3.44835328533559e-001dB,-1.60383246313434e+001°)
3.98107170553496e+002	(-3.60598008821411e-001dB,-1.63958178612659e+001°)
4.07380277804112e+002	(-3.77058714242946e-001dB,-1.67605538581330e+001°)
4.16869383470335e+002	(-3.94246339359063e-001dB,-1.71326313401634e+001°)
4.26579518801592e+002	(-4.12190798704775e-001dB,-1.75121471577429e+001°)
4.36515832240165e+002	(-4.30923047766006e-001dB,-1.78991960407078e+001°)
4.46683592150962e+002	(-4.50475103077372e-001dB,-1.82938703335479e+001°)
4.57088189614874e+002	(-4.70880061307827e-001dB,-1.86962597185716e+001°)
4.67735141287197e+002	(-4.92172117195532e-001dB,-1.91064509271494e+001°)
4.78630092322637e+002	(-5.14386580188107e-001dB,-1.95245274392350e+001°)
4.89778819368445e+002	(-5.37559889640095e-001dB,-1.99505691714571e+001°)
5.01187233627271e+002	(-5.61729628416268e-001dB,-2.03846521541746e+001°)
5.12861383991364e+002	(-5.86934534746731e-001dB,-2.08268481979964e+001°)
5.24807460249771e+002	(-6.13214512179180e-001dB,-2.12772245503852e+001°)
5.37031796370251e+002	(-6.40610637473798e-001dB,-2.17358435430916e+001°)
5.49540873857623e+002	(-6.69165166288654e-001dB,-2.22027622312983e+001°)
5.62341325190348e+002	(-6.98921536507524e-001dB,-2.26780320254959e+001°)
5.75439937337155e+002	(-7.29924369068348e-001dB,-2.31616983172621e+001°)
5.88843655355587e+002	(-7.62219466159241e-001dB,-2.36538001002705e+001°)
6.02559586074356e+002	(-7.95853806660371e-001dB,-2.41543695880162e+001°)
6.16595001861481e+002	(-8.30875538724147e-001dB,-2.46634318299098e+001°)
6.30957344480192e+002	(-8.67333969403754e-001dB,-2.51810043275596e+001°)
6.45654229034654e+002	(-9.05279551260657e-001dB,-2.57070966532280e+001°)
6.60693448007594e+002	(-9.44763865906043e-001dB,-2.62417100726167e+001°)
6.76082975391980e+002	(-9.85839604459352e-001dB,-2.67848371742982e+001°)
6.91830970918935e+002	(-1.02856054493910e+000dB,-2.73364615082680e+001°)
7.07945784384136e+002	(-1.07298152663702e+000dB,-2.78965572362427e+001°)
7.24435960074988e+002	(-1.11915842156735e+000dB,-2.84650887964669e+001°)
7.41310241300916e+002	(-1.16714810312692e+000dB,-2.90420105859126e+001°)
7.58577575029182e+002	(-1.21700841215112e+000dB,-2.96272666628659e+001°)
7.76247116628690e+002	(-1.26879812060298e+000dB,-3.02207904729762e+001°)
7.94328234724279e+002	(-1.32257689319033e+000dB,-3.08225046019050e+001°)
8.12830516164097e+002	(-1.37840524726594e+000dB,-3.14323205577482e+001°)
8.31763771102669e+002	(-1.43634451143095e+000dB,-3.20501385864018e+001°)
8.51138038202374e+002	(-1.49645678332888e+000dB,-3.26758475230166e+001°)
8.70963589956078e+002	(-1.55880488718887e+000dB,-3.33093246826149e+001°)
8.91250938133743e+002	(-1.62345233174991e+000dB,-3.39504357928368e+001°)
9.12010839355907e+002	(-1.69046326927322e+000dB,-3.45990349716369e+001°)
9.33254300796988e+002	(-1.75990245642713e+000dB,-3.52549647525607e+001°)
9.54992586021433e+002	(-1.83183521790658e+000dB,-3.59180561599959e+001°)
9.77237220955808e+002	(-1.90632741372817e+000dB,-3.65881288365198e+001°)
9.99999999999997e+002	(-1.98344541121997e+000dB,-3.72649912241388e+001°)
1.02329299228075e+003	(-2.06325606280316e+000dB,-3.79484408008614e+001°)
1.04712854805090e+003	(-2.14582669073987e+000dB,-3.86382643736408e+001°)
1.07151930523760e+003	(-2.23122508009645e+000dB,-3.93342384282896e+001°)
1.09647819614318e+003	(-2.31951948124625e+000dB,-4.00361295365032e+001°)
1.12201845430196e+003	(-2.41077862330740e+000dB,-4.07436948196322e+001°)
1.14815362149688e+003	(-2.50507173998247e+000dB,-4.14566824683324e+001°)
1.17489755493953e+003	(-2.60246860933619e+000dB,-4.21748323166921e+001°)
1.20226443461741e+003	(-2.70303960911620e+000dB,-4.28978764689019e+001°)
1.23026877081238e+003	(-2.80685578929157e+000dB,-4.36255399759997e+001°)
1.25892541179416e+003	(-2.91398896355398e+000dB,-4.43575415596994e+001°)
1.28824955169313e+003	(-3.02451182160182e+000dB,-4.50935943798067e+001°)
1.31825673855640e+003	(-3.13849806410581e+000dB,-4.58334068412443e+001°)
1.34896288259165e+003	(-3.25602256234389e+000dB,-4.65766834362677e+001°)
1.38038426460288e+003	(-3.37716154459101e+000dB,-4.73231256170449e+001°)
1.41253754462275e+003	(-3.50199281146427e+000dB,-4.80724326934238e+001°)
1.44543977074592e+003	(-3.63059598255710e+000dB,-4.88243027504154e+001°)
1.47910838816820e+003	(-3.76305277685429e+000dB,-4.95784335796797e+001°)
1.51356124843620e+003	(-3.89944732960875e+000dB,-5.03345236191377e+001°)
1.54881661891248e+003	(-4.03986654858768e+000dB,-5.10922728947296e+001°)
1.58489319246111e+003	(-4.18440051286787e+000dB,-5.18513839583088e+001°)
1.62181009735892e+003	(-4.33314291768817e+000dB,-5.26115628157065e+001°)
1.65958690743755e+003	(-4.48619156926098e+000dB,-5.33725198391104e+001°)
1.69824365246174e+003	(-4.64364893391742e+000dB,-5.41339706580856e+001°)
1.73780082874937e+003	(-4.80562274652826e+000dB,-5.48956370238091e+001°)
1.77827941003892e+003	(-4.97222668382103e+000dB,-5.56572476413968e+001°)
1.81970085860998e+003	(-5.14358110902529e+000dB,-5.64185389655608e+001°)
1.86208713666286e+003	(-5.31981389524684e+000dB,-5.71792559552456e+001°)
1.90546071796324e+003	(-5.50106133612860e+000dB,-5.79391527833361e+001°)
1.94984459975804e+003	(-5.68746915373695e+000dB,-5.86979934980159e+001°)
1.99526231496887e+003	(-5.87919361526199e+000dB,-5.94555526328548e+001°)
2.04173794466952e+003	(-6.07640277209293e+000dB,-6.02116157632266e+001°)
2.08929613085403e+003	(-6.27927783719320e+000dB,-6.09659800071873e+001°)
2.13796208950222e+003	(-6.48801471953612e+000dB,-6.17184544694678e+001°)
2.18776162394954e+003	(-6.70282573777630e+000dB,-6.24688606277538e+001°)
2.23872113856833e+003	(-6.92394153945433e+000dB,-6.32170326609296e+001°)
2.29086765276776e+003	(-7.15161325702731e+000dB,-6.39628177194410e+001°)
2.34422881531991e+003	(-7.38611493809539e+000dB,-6.47060761383821e+001°)
2.39883291901948e+003	(-7.62774629462201e+000dB,-6.54466815943363e+001°)
2.45470891568502e+003	(-7.87683582506710e+000dB,-6.61845212073746e+001°)
2.51188643150957e+003	(-8.13374437461314e+000dB,-6.69194955899663e+001°)
2.57039578276885e+003	(-8.39886921264506e+000dB,-6.76515188448488e+001°)
2.63026799189537e+003	(-8.67264872410727e+000dB,-6.83805185141668e+001°)
2.69153480392690e+003	(-8.95556783331246e+000dB,-6.91064354823994e+001°)
2.75422870333815e+003	(-9.24816430656137e+000dB,-6.98292238357662e+001°)
2.81838293126444e+003	(-9.55103611535466e+000dB,-7.05488506809287e+001°)
2.88403150312659e+003	(-9.86485008749004e+000dB,-7.12652959258924e+001°)
2.95120922666637e+003	(-1.01903521322953e+001dB,-7.19785520260577e+001°)
3.01995172040200e+003	(-1.05283794032983e+001dB,-7.26886236983858e+001°)
3.09029543251358e+003	(-1.08798748632816e+001dB,-7.33955276066174e+001°)
3.16227766016836e+003	(-1.12459048521181e+001dB,-7.40992920204350e+001°)
3.23593656929627e+003	(-1.16276804402447e+001dB,-7.47999564513780e+001°)
3.31131121482590e+003	(-1.20265835992994e+001dB,-7.54975712682187e+001°)
3.38844156139201e+003	(-1.24441995646514e+001dB,-7.61921972943846e+001°)
3.46736850452530e+003	(-1.28823572447630e+001dB,-7.68839053898732e+001°)
3.54813389233574e+003	(-1.33431802143184e+001dB,-7.75727760199532e+001°)
3.63078054770100e+003	(-1.38291518125580e+001dB,-7.82588988127821e+001°)
3.71535229097171e+003	(-1.43431993151252e+001dB,-7.89423721079018e+001°)
3.80189396320559e+003	(-1.48888043166149e+001dB,-7.96233024973944e+001°)
3.89045144994279e+003	(-1.54701497843310e+001dB,-8.03018043613094e+001°)
3.98107170553495e+003	(-1.60923194624481e+001dB,-8.09779993987879e+001°)
4.07380277804111e+003	(-1.67615737298694e+001dB,-8.16520161561422e+001°)
4.16869383470333e+003	(-1.74857400451045e+001dB,-8.23239895529727e+001°)
4.26579518801591e+003	(-1.82747803281844e+001dB,-8.29940604072393e+001°)
4.36515832240164e+003	(-1.91416411916145e+001dB,-8.36623749600477e+001°)
4.46683592150961e+003	(-2.01035751731402e+001dB,-8.43290844007586e+001°)
4.57088189614873e+003	(-2.11842855567146e+001dB,-8.49943443928859e+001°)
4.67735141287196e+003	(-2.24175997736832e+001dB,-8.56583146011236e+001°)
4.78630092322636e+003	(-2.38541994207146e+001dB,-8.63211582197120e+001°)
4.89778819368444e+003	(-2.55750801075839e+001dB,-8.69830415022553e+001°)
5.01187233627270e+003	(-2.77218859707944e+001dB,-8.76441332929969e+001°)
5.12861383991362e+003	(-3.05783000025212e+001dB,-8.83046045594785e+001°)
5.24807460249770e+003	(-3.48609964435584e+001dB,-8.89646279264356e+001°)
5.37031796370250e+003	(-4.36674762006662e+001dB,-8.96243772107225e+001°)
5.49540873857622e+003	(-4.60952970043084e+001dB,8.97159730429883e+001°)
5.62341325190346e+003	(-3.56656879569722e+001dB,8.90562480260183e+001°)
5.75439937337154e+003	(-3.10609787302895e+001dB,8.83962731293142e+001°)
5.88843655355586e+003	(-2.80667030636941e+001dB,8.77358744072185e+001°)
6.02559586074354e+003	(-2.58433495471572e+001dB,8.70748790416827e+001°)
6.16595001861479e+003	(-2.40737798055843e+001dB,8.64131158072192e+001°)
6.30957344480190e+003	(-2.26034884218079e+001dB,8.57504155368493e+001°)
6.45654229034652e+003	(-2.13454791578030e+001dB,8.50866115892620e+001°)
6.60693448007592e+003	(-2.02458939297096e+001dB,8.44215403173403e+001°)
6.76082975391978e+003	(-1.92690663418220e+001dB,8.37550415381402e+001°)
6.91830970918932e+003	(-1.83901546779970e+001dB,8.30869590043261e+001°)
7.07945784384134e+003	(-1.75911638935754e+001dB,8.24171408769691e+001°)
7.24435960074986e+003	(-1.68586424135643e+001dB,8.17454401995090e+001°)
7.41310241300913e+003	(-1.61822729165275e+001dB,8.10717153725600e+001°)
7.58577575029179e+003	(-1.55539705299332e+001dB,8.03958306291135e+001°)
7.76247116628687e+003	(-1.49672838399509e+001dB,7.97176565095476e+001°)
7.94328234724277e+003	(-1.44169843330037e+001dB,7.90370703357062e+001°)
8.12830516164094e+003	(-1.38987773209347e+001dB,7.83539566831542e+001°)
8.31763771102666e+003	(-1.34090936068242e+001dB,7.76682078505453e+001°)
8.51138038202371e+003	(-1.29449362491993e+001dB,7.69797243248754e+001°)
8.70963589956075e+003	(-1.25037658070773e+001dB,7.62884152412132e+001°)
8.91250938133740e+003	(-1.20834130161347e+001dB,7.55941988353272e+001°)
9.12010839355904e+003	(-1.16820113791218e+001dB,7.48970028874474e+001°)
9.33254300796985e+003	(-1.12979444517760e+001dB,7.41967651552269e+001°)
9.54992586021430e+003	(-1.09298041341371e+001dB,7.34934337937953e+001°)
9.77237220955804e+003	(-1.05763573145835e+001dB,7.27869677606328e+001°)
9.99999999999993e+003	(-1.02365189308434e+001dB,7.20773372028383e+001°)
1.02329299228075e+004	(-9.90933001595467e+000dB,7.13645238242258e+001°)
1.04712854805089e+004	(-9.59393965642801e+000dB,7.06485212295559e+001°)
1.07151930523760e+004	(-9.28959004971867e+000dB,6.99293352431059e+001°)
1.09647819614318e+004	(-8.99560403844485e+000dB,6.92069841986991e+001°)
1.12201845430196e+004	(-8.71137463986999e+000dB,6.84814991982572e+001°)
1.14815362149688e+004	(-8.43635619488014e+000dB,6.77529243359150e+001°)
1.17489755493952e+004	(-8.17005684071362e+000dB,6.70213168847425e+001°)
1.20226443461740e+004	(-7.91203207285721e+000dB,6.62867474431616e+001°)
1.23026877081237e+004	(-7.66187920867642e+000dB,6.55493000382258e+001°)
1.25892541179416e+004	(-7.41923260200708e+000dB,6.48090721830532e+001°)
1.28824955169313e+004	(-7.18375948665946e+000dB,6.40661748858657e+001°)
1.31825673855640e+004	(-6.95515634945872e+000dB,6.33207326082949e+001°)
1.34896288259164e+004	(-6.73314575146397e+000dB,6.25728831708665e+001°)
1.38038426460288e+004	(-6.51747353042254e+000dB,6.18227776038672e+001°)
1.41253754462274e+004	(-6.30790632911609e+000dB,6.10705799421381e+001°)
1.44543977074592e+004	(-6.10422940364453e+000dB,6.03164669627103e+001°)
1.47910838816820e+004	(-5.90624467333381e+000dB,5.95606278646187e+001°)
1.51356124843620e+004	(-5.71376898020133e+000dB,5.88032638906720e+001°)
1.54881661891247e+004	(-5.52663253104414e+000dB,5.80445878914350e+001°)
1.58489319246110e+004	(-5.34467749944817e+000dB,5.72848238321817e+001°)
1.62181009735892e+004	(-5.16775676852057e+000dB,5.65242062440890e+001°)
1.65958690743755e+004	(-4.99573279805740e+000dB,5.57629796214693e+001°)
1.69824365246173e+004	(-4.82847660228213e+000dB,5.50013977673691e+001°)
1.73780082874936e+004	(-4.66586682631335e+000dB,5.42397230903808e+001°)
1.77827941003891e+004	(-4.50778891121107e+000dB,5.34782258560221e+001°)
1.81970085860997e+004	(-4.35413433886632e+000dB,5.27171833965236e+001°)
1.86208713666285e+004	(-4.20479994918474e+000dB,5.19568792833186e+001°)
1.90546071796323e+004	(-4.05968732300759e+000dB,5.11976024669393e+001°)
1.94984459975803e+004	(-3.91870222504559e+000dB,5.04396463893981e+001°)
1.99526231496887e+004	(-3.78175410179643e+000dB,4.96833080744396e+001°)
2.04173794466951e+004	(-3.64875562999857e+000dB,4.89288872013074e+001°)
2.08929613085402e+004	(-3.51962231165859e+000dB,4.81766851678603e+001°)
2.13796208950222e+004	(-3.39427211209397e+000dB,4.74270041489915e+001°)
2.18776162394954e+004	(-3.27262513776932e+000dB,4.66801461563596e+001°)
2.23872113856832e+004	(-3.15460335098348e+000dB,4.59364121054196e+001°)
2.29086765276776e+004	(-3.04013031869775e+000dB,4.51961008956502e+001°)
2.34422881531990e+004	(-2.92913099298902e+000dB,4.44595085097148e+001°)
2.39883291901947e+004	(-2.82153152077378e+000dB,4.37269271370679e+001°)
2.45470891568501e+004	(-2.71725908058547e+000dB,4.29986443272262e+001°)
2.51188643150956e+004	(-2.61624174430424e+000dB,4.22749421775831e+001°)
2.57039578276884e+004	(-2.51840836183908e+000dB,4.15560965602450e+001°)
2.63026799189536e+004	(-2.42368846685130e+000dB,4.08423763919298e+001°)
2.69153480392689e+004	(-2.33201220168905e+000dB,4.01340429504940e+001°)
2.75422870333814e+004	(-2.24331025977749e+000dB,3.94313492411502e+001°)
2.81838293126443e+004	(-2.15751384378048e+000dB,3.87345394149162e+001°)
2.88403150312658e+004	(-2.07455463791895e+000dB,3.80438482413051e+001°)
2.95120922666636e+004	(-1.99436479290035e+000dB,3.73595006367302e+001°)
3.01995172040199e+004	(-1.91687692198266e+000dB,3.66817112495688e+001°)
3.09029543251357e+004	(-1.84202410676729e+000dB,3.60106841023150e+001°)
3.16227766016835e+004	(-1.76973991138690e+000dB,3.53466122907520e+001°)
3.23593656929626e+004	(-1.69995840382846e+000dB,3.46896777396053e+001°)
3.31131121482588e+004	(-1.63261418320654e+000dB,3.40400510136961e+001°)
3.38844156139200e+004	(-1.56764241187913e+000dB,3.33978911832116e+001°)
3.46736850452529e+004	(-1.50497885137578e+000dB,3.27633457413399e+001°)
3.54813389233573e+004	(-1.44455990118635e+000dB,3.21365505721912e+001°)
3.63078054770098e+004	(-1.38632263953734e+000dB,3.15176299666477e+001°)
3.71535229097169e+004	(-1.33020486536047e+000dB,3.09066966835400e+001°)
3.80189396320558e+004	(-1.27614514073611e+000dB,3.03038520533555e+001°)
3.89045144994277e+004	(-1.22408283316904e+000dB,2.97091861215277e+001°)
3.98107170553494e+004	(-1.17395815712821e+000dB,2.91227778282459e+001°)
4.07380277804109e+004	(-1.12571221435317e+000dB,2.85446952216484e+001°)
4.16869383470332e+004	(-1.07928703249811e+000dB,2.79749957012296e+001°)
4.26579518801589e+004	(-1.03462560174930e+000dB,2.74137262882854e+001°)
4.36515832240162e+004	(-9.91671909113321e-001dB,2.68609239202554e+001°)
4.46683592150959e+004	(-9.50370970130702e-001dB,2.63166157658725e+001°)
4.57088189614871e+004	(-9.10668857823159e-001dB,2.57808195581170e+001°)
4.67735141287194e+004	(-8.72512728731975e-001dB,2.52535439420720e+001°)
4.78630092322634e+004	(-8.35850845949988e-001dB,2.47347888348997e+001°)
4.89778819368442e+004	(-8.00632599090751e-001dB,2.42245457952959e+001°)
5.01187233627268e+004	(-7.66808521174749e-001dB,2.37227983999234e+001°)
5.12861383991360e+004	(-7.34330302445596e-001dB,2.32295226244875e+001°)
5.24807460249768e+004	(-7.03150801157332e-001dB,2.27446872272744e+001°)
5.37031796370248e+004	(-6.73224051399100e-001dB,2.22682541331435e+001°)
5.49540873857620e+004	(-6.44505268044589e-001dB,2.18001788161312e+001°)
